time	V(2)	V(d1)	V(d2)
0.000000000000000e+000	0.000000e+000	0.000000e+000	0.000000e+000
9.999999717180685e-010	1.249990e-018	9.999914e-010	7.499930e-001
1.999999943436137e-009	3.333293e-018	1.833311e-009	9.166535e-001
3.999999886872274e-009	1.099975e-017	3.166593e-009	7.083122e-001
7.999999773744548e-009	4.099805e-017	5.999718e-009	6.666257e-001
1.599999954748910e-008	1.609845e-016	1.199887e-008	7.499153e-001
1.183999966514194e-006	9.947257e-013	8.778250e-007	7.432760e-001
2.351999933480898e-006	3.503277e-012	1.736108e-006	7.371634e-001
3.519999900447603e-006	7.525816e-012	2.586847e-006	7.315776e-001
4.687999867414307e-006	1.306234e-011	3.430043e-006	7.265185e-001
5.855999834381011e-006	2.011285e-011	4.265695e-006	7.219863e-001
7.023999801347716e-006	2.867735e-011	5.093804e-006	7.179808e-001
8.191999768314418e-006	3.875584e-011	5.914369e-006	7.145020e-001
1.508812268739148e-005	1.209483e-010	1.077694e-005	7.062988e-001
2.497650795390862e-005	3.054941e-010	1.742305e-005	6.804237e-001
3.861625288171296e-005	6.694165e-010	2.554349e-005	6.081807e-001
5.615519285630133e-005	1.281480e-009	3.394704e-005	4.946125e-001
7.819331400255334e-005	2.200083e-009	4.111636e-005	3.417861e-001
1.045917821513160e-004	3.382811e-009	4.471593e-005	1.531344e-001
1.355327119646213e-004	4.674413e-009	4.214097e-005	-6.828139e-002
1.703343528873755e-004	5.719187e-009	3.078963e-005	-3.140399e-001
2.083583750724845e-004	6.022591e-009	8.610768e-006	-5.768911e-001
2.477407389432659e-004	5.029245e-009	-2.447739e-005	-8.353609e-001
2.887032899054155e-004	2.221685e-009	-6.892927e-005	-1.087003e+000
3.283587903700964e-004	-2.643858e-009	-1.199386e-004	-1.280868e+000
3.736312559095494e-004	-1.138011e-008	-1.831603e-004	-1.389766e+000
4.344719244315808e-004	-2.933923e-008	-2.702523e-004	-1.428238e+000
5.326620515892689e-004	-7.406219e-008	-4.088976e-004	-1.423113e+000
6.992824275144522e-004	-1.809614e-007	-6.426837e-004	-1.413483e+000
8.359479833999314e-004	-2.883903e-007	-8.759545e-004	-7.343726e+001
8.364161962866769e-004	-2.888007e-007	-8.878461e-004	-7.347897e+001
8.373526220601677e-004	-2.896539e-007	-9.108632e-004	-4.882436e+001
8.392254736071492e-004	-2.913618e-007	-9.115634e-004	-3.544821e-001
8.429711767011124e-004	-2.947841e-007	-9.129856e-004	-3.864662e-001
8.654453952648912e-004	-3.154568e-007	-9.196784e-004	-3.027520e-001
8.954110200165963e-004	-3.431338e-007	-9.233442e-004	-1.838587e-001
9.553422695200064e-004	-3.968780e-007	-9.103342e-004	7.813624e-002
1.075526251784225e-003	-4.998924e-007	-7.967830e-004	1.113426e+002
1.076169218299022e-003	-5.003888e-007	-7.724038e-004	7.467597e+001
1.077455151328616e-003	-5.013787e-007	-7.707096e-004	1.237560e+000
1.080027017387804e-003	-5.033468e-007	-7.670843e-004	1.403468e+000
1.095458213742932e-003	-5.148101e-007	-7.442505e-004	1.475848e+000
1.116033142216435e-003	-5.290822e-007	-7.110416e-004	1.568681e+000
1.157182999163442e-003	-5.535941e-007	-6.359812e-004	1.741743e+000
1.239482713057455e-003	-5.831939e-007	-4.575122e-004	2.037466e+000
1.404082140845482e-003	-5.718425e-007	-1.090015e-005	2.615890e+000
1.605076878374715e-003	-4.252529e-007	6.222402e-004	3.120112e+000
1.877428952966524e-003	-6.910070e-008	1.705866e-003	3.364132e+002
1.878088992438981e-003	-6.797335e-008	1.884817e-003	3.369010e+002
1.878254002307095e-003	-6.765499e-008	1.929293e-003	2.251202e+002
1.878584022043323e-003	-6.701804e-008	1.929797e-003	1.622055e+000
1.879244061515780e-003	-6.574322e-008	1.930864e-003	1.523828e+000
1.880564140460693e-003	-6.318987e-008	1.933117e-003	1.709119e+000
1.904325561469133e-003	-1.593698e-008	1.971685e-003	1.604465e+000
1.928086982477573e-003	3.195603e-008	2.005359e-003	1.492648e+000
1.951848403486012e-003	8.048917e-008	2.034139e-003	1.373669e+000
1.975609824494452e-003	1.296624e-007	2.058023e-003	1.247527e+000
1.999371245502891e-003	1.794758e-007	2.077013e-003	1.114223e+000
2.023132666511331e-003	2.299293e-007	2.091108e-003	9.737564e-001
2.046894087519771e-003	2.810230e-007	2.100308e-003	8.261272e-001
2.184193096494300e-003	5.715830e-007	2.082272e-003	-8.444540e+001
2.185904281273687e-003	5.751157e-007	2.064556e-003	-1.029219e+000
2.188185860979537e-003	5.798170e-007	2.061878e-003	-1.168169e+000
2.220127976861434e-003	6.444314e-007	2.020114e-003	-1.318680e+000
2.256633252155030e-003	7.150063e-007	1.963670e-003	-1.473422e+000
2.329643802742223e-003	8.432352e-007	1.829597e-003	-1.727649e+000
2.475664903916608e-003	1.042879e-006	1.525122e-003	-2.015092e+000
2.767707106265379e-003	1.334123e-006	6.839117e-004	-1.457091e+003
2.767849704996995e-003	1.334220e-006	6.143658e-004	-1.457605e+003
2.768134902460226e-003	1.334355e-006	4.755969e-004	-9.718922e+002
2.768705297386688e-003	1.334626e-006	4.747899e-004	-1.332621e+000
2.769846087239613e-003	1.335165e-006	4.730874e-004	-1.494773e+000
2.785817145180562e-003	1.342383e-006	4.502508e-004	-1.425004e+000
2.804069782827360e-003	1.349965e-006	4.265629e-004	-1.340954e+000
2.840575058120956e-003	1.363518e-006	3.877399e-004	-1.159047e+000
2.913870806171380e-003	1.388141e-006	3.069645e-004	-5.222374e+001
2.914441201097842e-003	1.388311e-006	2.969982e-004	-3.474679e+001
2.915581990950767e-003	1.388649e-006	2.967492e-004	-2.083681e-001
2.917863570656617e-003	1.389325e-006	2.962627e-004	-2.207208e-001
2.931553048891715e-003	1.393358e-006	2.945659e-004	-1.292068e-001
2.949805686538513e-003	1.398783e-006	2.956795e-004	-3.161653e-003
2.986310961832110e-003	1.410722e-006	3.129040e-004	2.985104e-001
3.059321512419302e-003	1.437481e-006	4.125320e-004	1.186774e+002
3.059606709882533e-003	1.437599e-006	4.242334e-004	1.192219e+002
3.060177104808996e-003	1.437855e-006	4.476654e-004	8.023445e+001
3.061317894661921e-003	1.438370e-006	4.501728e-004	2.062011e+000
3.063599474367771e-003	1.439416e-006	4.555765e-004	2.351191e+000
3.077288952602869e-003	1.446164e-006	4.906976e-004	2.554616e+000
3.095541590249667e-003	1.456628e-006	5.444653e-004	2.817051e+000
3.132046865543263e-003	1.483858e-006	6.740242e-004	3.311751e+000
3.205057416130456e-003	1.551143e-006	1.084763e-003	3.968795e+002
3.205342613593687e-003	1.551453e-006	1.123812e-003	3.982915e+002
3.205913008520149e-003	1.552138e-006	1.201825e-003	8.942171e+001
3.206055607251765e-003	1.552309e-006	1.202991e-003	1.226706e+001
3.206340804714996e-003	1.552653e-006	1.204992e-003	9.642530e+000
3.206911199641459e-003	1.553343e-006	1.207833e-003	4.684527e+000
3.208051989494384e-003	1.554731e-006	1.213863e-003	5.280594e+000
3.224023047435332e-003	1.575405e-006	1.300525e-003	5.437634e+000
3.242275685082130e-003	1.602009e-006	1.404386e-003	5.607682e+000
3.278780960375726e-003	1.665553e-006	1.625700e-003	5.917613e+000
3.351791510962919e-003	1.838101e-006	2.109483e-003	6.416822e+000
3.497812612137304e-003	2.371776e-006	3.135980e-003	6.932690e+000
3.789854814486075e-003	3.791551e-006	5.874061e-003	4.698765e+003
3.789997413217690e-003	3.792388e-006	6.098347e-003	4.700470e+003
3.790282610680922e-003	3.794255e-006	6.545932e-003	3.134342e+003
3.790853005607384e-003	3.797992e-006	6.548793e-003	4.723445e+000
3.791993795460309e-003	3.805473e-006	6.554836e-003	5.303417e+000
3.802097934157644e-003	3.872311e-006	6.607524e-003	5.200206e+000
3.812202072854978e-003	3.939884e-006	6.658237e-003	5.093915e+000
3.822306211552313e-003	4.008190e-006	6.706975e-003	4.984546e+000
3.832410350249648e-003	4.077231e-006	6.753739e-003	4.872097e+000
3.842514488946982e-003	4.147006e-006	6.798528e-003	4.756568e+000
3.852618627644317e-003	4.217516e-006	6.841341e-003	4.637961e+000
3.862722766341652e-003	4.288759e-006	6.882180e-003	4.516273e+000
3.936018514392075e-003	4.810172e-006	7.262600e-003	2.788818e+002
3.936588909318538e-003	4.814346e-006	7.316251e-003	1.861346e+002
3.937729699171462e-003	4.822696e-006	7.318800e-003	2.109312e+000
3.940011278877312e-003	4.839413e-006	7.324103e-003	2.341485e+000
3.971953394759209e-003	5.075110e-006	7.384038e-003	1.841692e+000
4.008601268784421e-003	5.347248e-006	7.449619e-003	8.662671e+001
4.008886466247652e-003	5.349375e-006	7.457900e-003	5.767514e+001
4.009456861174114e-003	5.353629e-006	7.458148e-003	4.136179e-001
4.010597651027039e-003	5.362138e-006	7.458644e-003	4.455629e-001
4.017442390144589e-003	5.413206e-006	7.460762e-003	3.165575e-001
4.026568708967988e-003	5.481297e-006	7.461337e-003	1.470211e-001
4.044821346614786e-003	5.617268e-006	7.455020e-003	-1.835809e-001
4.081469220639998e-003	5.889693e-006	7.410839e-003	-9.390817e+001
4.082324813029691e-003	5.896025e-006	7.400796e-003	-1.410259e+000
4.083465602882616e-003	5.904465e-006	7.398957e-003	-1.603360e+000
4.099436660823565e-003	6.022195e-006	7.369595e-003	-1.856815e+000
4.117689298470363e-003	6.155536e-006	7.328114e-003	-2.135889e+000
4.154194573763959e-003	6.416958e-006	7.221847e-003	-2.660158e+000
4.227205124351151e-003	6.928866e-006	6.869569e-003	-3.468826e+002
4.227490321814383e-003	6.930825e-006	6.835438e-003	-3.481404e+002
4.228203315472461e-003	6.935650e-006	6.766146e-003	-1.098168e+001
4.228488512935692e-003	6.937579e-006	6.764355e-003	-8.632752e+000
4.229058907862154e-003	6.941435e-006	6.761811e-003	-4.195297e+000
4.230199697715079e-003	6.949140e-006	6.756407e-003	-4.730611e+000
4.250733915067727e-003	7.086352e-006	6.654208e-003	-4.938172e+000
4.271268132420375e-003	7.219334e-006	6.547103e-003	-5.131443e+000
4.291802349773023e-003	7.348087e-006	6.435091e-003	-5.310424e+000
4.312336567125670e-003	7.472611e-006	6.318172e-003	-5.475114e+000
4.332870784478318e-003	7.592905e-006	6.196348e-003	-5.625514e+000
4.353405001830966e-003	7.708970e-006	6.069617e-003	-5.761624e+000
4.373939219183614e-003	7.820805e-006	5.937980e-003	-5.883443e+000
4.519960320358000e-003	8.483890e-006	5.005759e-003	-6.337666e+000
4.812002522706770e-003	9.497009e-006	2.589596e-003	-4.047701e+003
4.812145121438386e-003	9.497378e-006	2.396399e-003	-4.049077e+003
4.812430318901617e-003	9.497951e-006	2.010954e-003	-2.699691e+003
4.813000713828080e-003	9.499096e-006	2.008818e-003	-3.527543e+000
4.814141503681004e-003	9.501380e-006	2.004313e-003	-3.955848e+000
4.830112561621953e-003	9.532501e-006	1.944082e-003	-3.757375e+000
4.848365199268751e-003	9.566322e-006	1.882051e-003	-3.519970e+000
4.885013073293963e-003	9.631794e-006	1.722173e-003	-2.442800e+002
4.885298270757194e-003	9.632279e-006	1.698615e-003	-1.632015e+002
4.885868665683656e-003	9.633247e-006	1.697329e-003	-2.126436e+000
4.887009455536581e-003	9.635178e-006	1.694627e-003	-2.376667e+000
4.902980513477530e-003	9.661737e-006	1.660285e-003	-2.133143e+000
4.921233151124328e-003	9.691234e-006	1.629311e-003	-1.844251e+000
4.957881025149540e-003	9.749413e-006	1.563565e-003	-8.691101e+001
4.958166222612771e-003	9.749857e-006	1.555254e-003	-5.787309e+001
4.958736617539233e-003	9.750744e-006	1.554994e-003	-4.330064e-001
4.959877407392158e-003	9.752517e-006	1.554471e-003	-4.686219e-001
4.966722146509708e-003	9.763140e-006	1.552150e-003	-3.460061e-001
4.975848465333107e-003	9.777299e-006	1.551271e-003	-1.800501e-001
4.994101102979905e-003	9.805791e-006	1.556302e-003	1.314939e-001
5.030606378273501e-003	9.864379e-006	1.585240e-003	6.062754e-001
5.103616928860693e-003	9.992727e-006	1.691260e-003	1.215624e+000
5.249638030035079e-003	1.027417e-005	2.095935e-003	2.085807e+002
5.250208424961541e-003	1.027537e-005	2.192285e-003	2.101103e+002
5.250351023693156e-003	1.027569e-005	2.216294e-003	1.411705e+002
5.250636221156388e-003	1.027632e-005	2.217037e-003	2.767905e+000
5.251206616082850e-003	1.027759e-005	2.218617e-003	2.607135e+000
5.252347405935775e-003	1.028012e-005	2.221970e-003	2.936782e+000
5.272881623288423e-003	1.032678e-005	2.284050e-003	3.008048e+000
5.293415840641071e-003	1.037581e-005	2.347744e-003	3.073952e+000
5.313950057993719e-003	1.042720e-005	2.413053e-003	3.134494e+000
5.334484275346366e-003	1.048095e-005	2.479976e-003	3.189672e+000
5.355018492699014e-003	1.053707e-005	2.548514e-003	3.239489e+000
5.375552710051662e-003	1.059555e-005	2.618667e-003	3.283943e+000
5.396086927404310e-003	1.065639e-005	2.690433e-003	3.323034e+000
5.542108028578695e-003	1.115879e-005	3.192789e-003	3.446394e+000
5.834150230927466e-003	1.233020e-005	4.479606e-003	2.158852e+003
5.834292829659082e-003	1.233084e-005	4.582655e-003	2.159613e+003
5.834578027122313e-003	1.233221e-005	4.788278e-003	1.440007e+003
5.835148422048775e-003	1.233494e-005	4.789543e-003	2.088730e+000
5.836289211901700e-003	1.234041e-005	4.792214e-003	2.344743e+000
5.846393350599034e-003	1.238910e-005	4.815463e-003	2.294742e+000
5.856497489296370e-003	1.243811e-005	4.837769e-003	2.243444e+000
5.866601627993704e-003	1.248744e-005	4.859134e-003	2.190848e+000
5.876705766691039e-003	1.253709e-005	4.879557e-003	2.136955e+000
5.886809905388373e-003	1.258705e-005	4.899038e-003	2.081764e+000
5.896914044085709e-003	1.263734e-005	4.917577e-003	2.025275e+000
5.907018182783043e-003	1.268794e-005	4.935175e-003	1.967489e+000
5.980313930833467e-003	1.305694e-005	5.097258e-003	1.173680e+002
5.980884325759929e-003	1.305986e-005	5.119822e-003	7.831438e+001
5.982025115612854e-003	1.306571e-005	5.120852e-003	8.529323e-001
5.984306695318704e-003	1.307740e-005	5.122990e-003	9.449375e-001
5.997996173553803e-003	1.314769e-005	5.134457e-003	8.442488e-001
6.016248811200601e-003	1.324169e-005	5.145547e-003	6.897998e-001
6.052754086494197e-003	1.342974e-005	5.152707e-003	3.607754e-001
6.126049834544621e-003	1.380668e-005	5.121240e-003	-4.744587e+001
6.127761019324008e-003	1.381542e-005	5.110762e-003	-9.117021e-001
6.130042599029857e-003	1.382707e-005	5.108367e-003	-1.041105e+000
6.161984714911755e-003	1.398905e-005	5.068384e-003	-1.268547e+000
6.198489990205351e-003	1.417071e-005	5.009250e-003	-1.506640e+000
6.271500540792543e-003	1.451894e-005	4.856454e-003	-1.912939e+000
6.417521641966928e-003	1.514176e-005	4.473967e-003	-2.446022e+000
6.709563844315699e-003	1.624138e-005	3.321218e-003	-2.097349e+003
6.709706443047314e-003	1.624185e-005	3.221108e-003	-2.098156e+003
6.709991640510546e-003	1.624271e-005	3.021283e-003	-1.399189e+003
6.710562035437008e-003	1.624443e-005	3.019915e-003	-2.258479e+000
6.711702825289933e-003	1.624788e-005	3.017024e-003	-2.536400e+000
6.721806963987267e-003	1.627807e-005	2.991756e-003	-2.492827e+000
6.731911102684602e-003	1.630791e-005	2.967358e-003	-2.447471e+000
6.742015241381937e-003	1.633739e-005	2.943831e-003	-2.400331e+000
6.752119380079272e-003	1.636651e-005	2.921175e-003	-2.351407e+000
6.762223518776606e-003	1.639528e-005	2.899389e-003	-2.300699e+000
6.772327657473942e-003	1.642368e-005	2.878475e-003	-2.248208e+000
6.782431796171276e-003	1.645173e-005	2.858432e-003	-2.193933e+000
6.855727544221700e-003	1.665288e-005	2.670192e-003	-1.392877e+002
6.856297939148162e-003	1.665439e-005	2.643385e-003	-9.298072e+001
6.857438729001087e-003	1.665740e-005	2.642081e-003	-1.078583e+000
6.859720308706937e-003	1.666342e-005	2.639366e-003	-1.198505e+000
6.891662424588834e-003	1.674681e-005	2.608161e-003	-9.604471e-001
6.928167699882430e-003	1.684117e-005	2.589405e-003	-6.665687e-001
7.001178250469622e-003	1.703219e-005	2.598204e-003	-1.202682e-001
7.147199351644007e-003	1.744291e-005	2.723610e-003	6.100722e-001
7.439241553992778e-003	1.842003e-005	3.123834e-003	1.239001e+000
8.023325958690319e-003	2.068116e-005	4.317256e-003	1.034371e+003
8.023611156153550e-003	2.068239e-005	4.416010e-003	1.034758e+003
8.024181551080013e-003	2.068502e-005	4.613115e-003	6.900416e+002
8.025322340932938e-003	2.069029e-005	4.614523e-003	1.154825e+000
8.027603920638787e-003	2.070083e-005	4.617587e-003	1.327586e+000
8.059546036520685e-003	2.084997e-005	4.672491e-003	1.749796e+000
8.096051311814281e-003	2.102561e-005	4.760758e-003	2.200823e+000
8.169061862401473e-003	2.138605e-005	5.056013e-003	2.919339e+002
8.169347059864704e-003	2.138749e-005	5.084739e-003	2.929981e+002
8.170060053522783e-003	2.139116e-005	5.143079e-003	9.318083e+000
8.170345250986014e-003	2.139262e-005	5.144599e-003	7.325222e+000
8.170915645912477e-003	2.139556e-005	5.146759e-003	3.560400e+000
8.172056435765402e-003	2.140144e-005	5.151345e-003	4.015300e+000
8.213450810428676e-003	2.161973e-005	5.338085e-003	4.384896e+000
8.254845185091951e-003	2.185439e-005	5.537048e-003	4.711305e+000
8.296239559755225e-003	2.210542e-005	5.748235e-003	4.994526e+000
8.337633934418498e-003	2.237281e-005	5.971645e-003	5.234560e+000
8.379028309081773e-003	2.265657e-005	6.207280e-003	5.431407e+000
8.420422683745047e-003	2.295670e-005	6.455139e-003	5.585065e+000
8.461817058408322e-003	2.327319e-005	6.715221e-003	5.695537e+000
8.753859260757092e-003	2.566570e-005	9.080171e-003	4.149500e+003
8.754001859488709e-003	2.566699e-005	9.278242e-003	4.151063e+003
8.754287056951939e-003	2.566975e-005	9.673573e-003	2.768153e+003
8.754857451878402e-003	2.567527e-005	9.676271e-003	4.453812e+000
8.755998241731327e-003	2.568632e-005	9.681974e-003	5.002881e+000
8.766102380428662e-003	2.578471e-005	9.731877e-003	4.927151e+000
8.776206519125996e-003	2.588382e-005	9.780307e-003	4.848849e+000
8.786310657823331e-003	2.598366e-005	9.827265e-003	4.767974e+000
8.796414796520666e-003	2.608422e-005	9.872749e-003	4.684529e+000
8.806518935218001e-003	2.618551e-005	9.916760e-003	4.598511e+000
8.816623073915335e-003	2.628753e-005	9.959299e-003	4.509921e+000
8.826727212612670e-003	2.639027e-005	1.000036e-002	4.418759e+000
8.900022960663093e-003	2.714060e-005	1.039460e-002	2.980256e+002
8.900593355589556e-003	2.714657e-005	1.045203e-002	1.990483e+002
8.901734145442481e-003	2.715850e-005	1.045504e-002	2.486427e+000
8.904015725148330e-003	2.718237e-005	1.046134e-002	2.773087e+000
8.935957841030228e-003	2.751880e-005	1.053850e-002	2.389038e+000
8.972463116323824e-003	2.790663e-005	1.060029e-002	1.927438e+000
9.045473666911016e-003	2.868595e-005	1.068601e-002	1.207951e+000
9.063726304557814e-003	2.888121e-005	1.070700e-002	4.229759e-001
9.064296699484277e-003	2.888732e-005	1.070726e-002	1.387385e-001
9.065437489337202e-003	2.889953e-005	1.070686e-002	-3.688900e-001
9.067719069043051e-003	2.892396e-005	1.070594e-002	-3.701750e-001
9.072282228454751e-003	2.897280e-005	1.070374e-002	-4.584063e-001
9.081408547278151e-003	2.907041e-005	1.069832e-002	-5.491605e-001
9.099661184924949e-003	2.926525e-005	1.068350e-002	-7.255492e-001
9.136166460218545e-003	2.965265e-005	1.063907e-002	-1.057848e+000
9.209177010805737e-003	3.041305e-005	1.050001e-002	-1.640538e+000
9.355198111980122e-003	3.185222e-005	1.009290e-002	-2.478323e+000
9.647240314328892e-003	3.456059e-005	8.731348e-003	-2.600401e+003
9.647382913060509e-003	3.456183e-005	8.607223e-003	-2.601471e+003
9.647668110523739e-003	3.456422e-005	8.359390e-003	-1.735030e+003
9.648238505450203e-003	3.456898e-005	8.357490e-003	-3.136086e+000
9.649379295303127e-003	3.457851e-005	8.353472e-003	-3.524472e+000
9.659483434000462e-003	3.466253e-005	8.318135e-003	-3.488143e+000
9.669587572697796e-003	3.474601e-005	8.283570e-003	-3.449724e+000
9.679691711395131e-003	3.482896e-005	8.249778e-003	-3.409214e+000
9.689795850092466e-003	3.491138e-005	8.216759e-003	-3.366614e+000
9.699899988789801e-003	3.499326e-005	8.184511e-003	-3.321924e+000
9.710004127487135e-003	3.507461e-005	8.153037e-003	-3.275143e+000
9.720108266184470e-003	3.515542e-005	8.122334e-003	-3.226271e+000
9.793404014234893e-003	3.573763e-005	7.821044e-003	-2.328056e+002
9.795115199014281e-003	3.575093e-005	7.773639e-003	-2.057190e+000
9.797396778720130e-003	3.576865e-005	7.768409e-003	-2.299913e+000
9.829338894602028e-003	3.601483e-005	7.701860e-003	-2.067500e+000
9.865844169895624e-003	3.629292e-005	7.642579e-003	-1.776307e+000
9.939139917946047e-003	3.684735e-005	7.521295e-003	-7.721011e+001
9.939710312872510e-003	3.685163e-005	7.506574e-003	-5.135182e+001
9.940851102725435e-003	3.686019e-005	7.506246e-003	-2.753161e-001
9.943132682431284e-003	3.687732e-005	7.505615e-003	-2.882047e-001
9.956822160666384e-003	3.698004e-005	7.503750e-003	-1.444778e-001
9.975074798313182e-003	3.711711e-005	7.506609e-003	5.463130e-002
1.001172267233839e-002	3.739265e-005	7.531603e-003	5.523381e+001
1.001257826472809e-002	3.739910e-005	7.537604e-003	9.452916e-001
1.001371905458101e-002	3.740770e-005	7.538847e-003	1.080214e+000
